T05C8 11567:999.427   SEGGER J-Link V6.70a Log File
T05C8 11567:999.499   DLL Compiled: Mar 30 2020 17:41:39
T05C8 11567:999.508   Logging started @ 2020-06-24 06:32
T05C8 11567:999.523 JLINK_SetWarnOutHandler(...)
T05C8 11567:999.528 - 0.008ms
T05C8 11567:999.536 JLINK_OpenEx(...)
T05C8 11568:001.475   Firmware: J-Link Pro V4 compiled Mar 19 2020 11:12:00
T05C8 11568:001.617   Decompressing FW timestamp took 117 us
T05C8 11568:008.479   Hardware: V4.00
T05C8 11568:008.493   S/N: 174504236
T05C8 11568:008.500   OEM: SEGGER
T05C8 11568:008.508   Feature(s): RDI, FlashBP, FlashDL, JFlash, GDB
T05C8 11568:012.740   TELNET listener socket opened on port 19021
T05C8 11568:015.866   WEBSRV Starting webserver
T05C8 11568:015.987   WEBSRV Webserver running on local port 19080
T05C8 11568:015.996 - 16.463ms returns "O.K."
T05C8 11568:016.012 JLINK_GetEmuCaps()
T05C8 11568:016.018 - 0.008ms returns 0xB9FF7BBF
T05C8 11568:016.026 JLINK_TIF_GetAvailable(...)
T05C8 11568:016.406 - 0.386ms
T05C8 11568:016.423 JLINK_SetErrorOutHandler(...)
T05C8 11568:016.428 - 0.007ms
T05C8 11568:016.439 JLINK_ExecCommand("ProjectFile = "F:\git-repositories\TinyOS\projects\keil\JLinkSettings.ini"", ...). 
T05C8 11568:017.732 - 1.298ms returns 0x00
T05C8 11568:018.225 JLINK_ExecCommand("Device = STM32F103RC", ...). 
T05C8 11568:018.548   Device "STM32F103RC" selected.
T05C8 11568:018.924 - 0.694ms returns 0x00
T05C8 11568:018.938 JLINK_ExecCommand("DisableConnectionTimeout", ...). 
T05C8 11568:018.952 - 0.007ms returns 0x01
T05C8 11568:018.965 JLINK_GetHardwareVersion()
T05C8 11568:018.973 - 0.010ms returns 0x9C40
T05C8 11568:018.982 JLINK_GetDLLVersion()  returns 67001
T05C8 11568:018.996 JLINK_GetFirmwareString(...)
T05C8 11568:019.003 - 0.010ms
T05C8 11568:019.028 JLINK_GetDLLVersion()  returns 67001
T05C8 11568:019.039 JLINK_GetCompileDateTime()
T05C8 11568:019.046 - 0.010ms
T05C8 11568:019.061 JLINK_GetFirmwareString(...)
T05C8 11568:019.069 - 0.011ms
T05C8 11568:019.085 JLINK_GetHardwareVersion()
T05C8 11568:019.093 - 0.011ms returns 0x9C40
T05C8 11568:019.138 JLINK_TIF_Select(JLINKARM_TIF_SWD)
T05C8 11568:022.550 - 3.418ms returns 0x00
T05C8 11568:022.568 JLINK_SetSpeed(50000)
T05C8 11568:022.782 - 0.219ms
T05C8 11568:022.795 JLINK_GetId()
T05C8 11568:026.978   Found SW-DP with ID 0x1BA01477
T05C8 11568:092.193   Found SW-DP with ID 0x1BA01477
T05C8 11568:099.397   DPIDR: 0x1BA01477
T05C8 11568:099.414   Scanning AP map to find all available APs
T05C8 11568:101.452   AP[1]: Stopped AP scan as end of AP map has been reached
T05C8 11568:101.478   AP[0]: AHB-AP (IDR: 0x14770011)
T05C8 11568:101.494   Iterating through AP map to find AHB-AP to use
T05C8 11568:103.982   AP[0]: Core found
T05C8 11568:103.997   AP[0]: AHB-AP ROM base: 0xE00FF000
T05C8 11568:104.567   CPUID register: 0x411FC231. Implementer code: 0x41 (ARM)
T05C8 11568:104.581   Found Cortex-M3 r1p1, Little endian.
T05C8 11568:207.608    -- Max. mem block: 0x0000CDD0
T05C8 11568:207.630    -- CPU_ReadMem(4 bytes @ 0xE000EDF0)
T05C8 11568:208.929    -- CPU_WriteMem(4 bytes @ 0xE000EDF0)
T05C8 11568:210.013    -- CPU_ReadMem(4 bytes @ 0xE0002000)
T05C8 11568:211.046   FPUnit: 6 code (BP) slots and 2 literal slots
T05C8 11568:211.056    -- CPU_ReadMem(4 bytes @ 0xE000EDFC)
T05C8 11568:212.013    -- CPU_WriteMem(4 bytes @ 0xE000EDFC)
T05C8 11568:213.048    -- CPU_ReadMem(4 bytes @ 0xE0001000)
T05C8 11568:214.072    -- CPU_WriteMem(4 bytes @ 0xE0001000)
T05C8 11568:215.262    -- CPU_ReadMem(4 bytes @ 0xE000ED88)
T05C8 11568:216.163    -- CPU_WriteMem(4 bytes @ 0xE000ED88)
T05C8 11568:217.296    -- CPU_ReadMem(4 bytes @ 0xE000ED88)
T05C8 11568:218.295    -- CPU_WriteMem(4 bytes @ 0xE000ED88)
T05C8 11568:219.298   CoreSight components:
T05C8 11568:219.312   ROMTbl[0] @ E00FF000
T05C8 11568:219.321    -- CPU_ReadMem(64 bytes @ 0xE00FF000)
T05C8 11568:220.644    -- CPU_ReadMem(32 bytes @ 0xE000EFE0)
T05C8 11568:221.353   ROMTbl[0][0]: E000E000, CID: B105E00D, PID: 001BB000 SCS
T05C8 11568:221.364    -- CPU_ReadMem(32 bytes @ 0xE0001FE0)
T05C8 11568:222.438   ROMTbl[0][1]: E0001000, CID: B105E00D, PID: 001BB002 DWT
T05C8 11568:222.450    -- CPU_ReadMem(32 bytes @ 0xE0002FE0)
T05C8 11568:223.433   ROMTbl[0][2]: E0002000, CID: B105E00D, PID: 000BB003 FPB
T05C8 11568:223.444    -- CPU_ReadMem(32 bytes @ 0xE0000FE0)
T05C8 11568:224.435   ROMTbl[0][3]: E0000000, CID: B105E00D, PID: 001BB001 ITM
T05C8 11568:224.447    -- CPU_ReadMem(32 bytes @ 0xE0040FE0)
T05C8 11568:225.477   ROMTbl[0][4]: E0040000, CID: B105900D, PID: 001BB923 TPIU-Lite
T05C8 11568:225.488    -- CPU_ReadMem(32 bytes @ 0xE0041FE0)
T05C8 11568:226.521   ROMTbl[0][5]: E0041000, CID: B105900D, PID: 101BB924 ETM-M3
T05C8 11568:227.473 - 204.682ms   returns 0x1BA01477
T05C8 11568:227.488 JLINK_GetDLLVersion()  returns 67001
T05C8 11568:227.499 JLINK_CORE_GetFound()
T05C8 11568:227.504 - 0.007ms returns 0x30000FF
T05C8 11568:227.512 JLINK_GetDebugInfo(0x100 = JLINKARM_ROM_TABLE_ADDR_INDEX)
T05C8 11568:227.518   Value=0xE00FF000
T05C8 11568:227.525 - 0.015ms returns 0x00
T05C8 11568:227.597 JLINK_GetDebugInfo(0x100 = JLINKARM_ROM_TABLE_ADDR_INDEX)
T05C8 11568:227.606   Value=0xE00FF000
T05C8 11568:227.613 - 0.018ms returns 0x00
T05C8 11568:227.620 JLINK_GetDebugInfo(0x101 = JLINKARM_DEBUG_INFO_ETM_ADDR_INDEX)
T05C8 11568:227.625   Value=0xE0041000
T05C8 11568:227.632 - 0.014ms returns 0x00
T05C8 11568:227.641   JLINK_ReadMemEx(0xE0041FD0, 0x0020 Bytes, ..., Flags = 0x02000004)
T05C8 11568:227.653    -- CPU_ReadMem(32 bytes @ 0xE0041FD0)
T05C8 11568:228.612   Data:  04 00 00 00 00 00 00 00 00 00 00 00 00 00 00 00 ...
T05C8 11568:228.621 - 0.983ms returns 0x20
T05C8 11568:228.630 JLINK_GetDebugInfo(0x102 = JLINKARM_DEBUG_INFO_MTB_ADDR_INDEX)
T05C8 11568:228.635   Value=0x00000000
T05C8 11568:228.642 - 0.015ms returns 0x00
T05C8 11568:228.649 JLINK_GetDebugInfo(0x103 = JLINKARM_DEBUG_INFO_TPIU_ADDR_INDEX)
T05C8 11568:228.654   Value=0xE0040000
T05C8 11568:228.661 - 0.014ms returns 0x00
T05C8 11568:228.668 JLINK_GetDebugInfo(0x104 = JLINKARM_DEBUG_INFO_ITM_ADDR_INDEX)
T05C8 11568:228.673   Value=0xE0000000
T05C8 11568:228.680 - 0.014ms returns 0x00
T05C8 11568:228.687 JLINK_GetDebugInfo(0x105 = JLINKARM_DEBUG_INFO_DWT_ADDR_INDEX)
T05C8 11568:228.692   Value=0xE0001000
T05C8 11568:228.699 - 0.014ms returns 0x00
T05C8 11568:228.706 JLINK_GetDebugInfo(0x106 = JLINKARM_DEBUG_INFO_FPB_ADDR_INDEX)
T05C8 11568:228.711   Value=0xE0002000
T05C8 11568:228.718 - 0.014ms returns 0x00
T05C8 11568:228.724 JLINK_GetDebugInfo(0x107 = JLINKARM_DEBUG_INFO_NVIC_ADDR_INDEX)
T05C8 11568:228.730   Value=0xE000E000
T05C8 11568:228.737 - 0.014ms returns 0x00
T05C8 11568:228.743 JLINK_GetDebugInfo(0x10C = JLINKARM_DEBUG_INFO_DBG_ADDR_INDEX)
T05C8 11568:228.749   Value=0xE000EDF0
T05C8 11568:228.755 - 0.014ms returns 0x00
T05C8 11568:228.762 JLINK_GetDebugInfo(0x01 = Unknown)
T05C8 11568:228.767   Value=0x00000000
T05C8 11568:228.774 - 0.014ms returns 0x00
T05C8 11568:228.782 JLINK_ReadMemU32(0xE000ED00, 0x0001 Items, ...)
T05C8 11568:228.790    -- CPU_ReadMem(4 bytes @ 0xE000ED00)
T05C8 11568:229.535   Data:  31 C2 1F 41
T05C8 11568:229.544    - CPUID
T05C8 11568:229.551 - 0.771ms returns 1
T05C8 11568:229.560 JLINK_GetDebugInfo(0x10F = JLINKARM_DEBUG_INFO_HAS_CORTEX_M_SECURITY_EXT_INDEX)
T05C8 11568:229.565   Value=0x00000000
T05C8 11568:229.572 - 0.015ms returns 0x00
T05C8 11568:229.583 JLINK_SetResetType(JLINKARM_CM3_RESET_TYPE_NORMAL)
T05C8 11568:229.588 - 0.007ms returns JLINKARM_CM3_RESET_TYPE_NORMAL
T05C8 11568:229.595 JLINK_Reset()
T05C8 11568:229.603   CPU is running
T05C8 11568:229.612    -- CPU_WriteMem(4 bytes @ 0xE000EDF0)
T05C8 11568:230.678   CPU is running
T05C8 11568:230.689    -- CPU_WriteMem(4 bytes @ 0xE000EDFC)
T05C8 11568:231.729   Reset: Halt core after reset via DEMCR.VC_CORERESET.
T05C8 11568:233.769   Reset: Reset device via AIRCR.SYSRESETREQ.
T05C8 11568:233.780   CPU is running
T05C8 11568:233.788    -- CPU_WriteMem(4 bytes @ 0xE000ED0C)
T05C8 11568:288.979    -- CPU_ReadMem(4 bytes @ 0xE000EDF0)
T05C8 11568:289.656    -- CPU_ReadMem(4 bytes @ 0xE000EDF0)
T05C8 11568:290.721   CPU is running
T05C8 11568:290.742    -- CPU_WriteMem(4 bytes @ 0xE000EDF0)
T05C8 11568:291.842   CPU is running
T05C8 11568:291.857    -- CPU_WriteMem(4 bytes @ 0xE000EDFC)
T05C8 11568:298.526    -- CPU_ReadMem(4 bytes @ 0xE000EDF0)
T05C8 11568:301.452    -- CPU_WriteMem(4 bytes @ 0xE0002000)
T05C8 11568:302.004    -- CPU_ReadMem(4 bytes @ 0xE000EDFC)
T05C8 11568:303.049    -- CPU_ReadMem(4 bytes @ 0xE0001000)
T05C8 11568:304.032 - 74.443ms
T05C8 11568:304.087 JLINK_ReadReg(R15 (PC))
T05C8 11568:304.097 - 0.012ms returns 0x080001CC
T05C8 11568:304.105 JLINK_ReadReg(XPSR)
T05C8 11568:304.110 - 0.008ms returns 0x01000000
T05C8 11568:304.119 JLINK_Halt()
T05C8 11568:304.124 - 0.007ms returns 0x00
T05C8 11568:304.131 JLINK_ReadMemU32(0xE000EDF0, 0x0001 Items, ...)
T05C8 11568:304.140    -- CPU_ReadMem(4 bytes @ 0xE000EDF0)
T05C8 11568:305.043   Data:  03 00 03 00
T05C8 11568:305.053    - DHCSR
T05C8 11568:305.060 - 0.932ms returns 1
T05C8 11568:305.071 JLINK_WriteU32(0xE000EDF0, 0xA05F0003)
T05C8 11568:305.076    - DHCSR
T05C8 11568:305.089    -- CPU_WriteMem(4 bytes @ 0xE000EDF0)
T05C8 11568:306.079 - 1.014ms returns 0
T05C8 11568:306.092 JLINK_WriteU32(0xE000EDFC, 0x01000000)
T05C8 11568:306.099    - DEMCR
T05C8 11568:306.110    -- CPU_WriteMem(4 bytes @ 0xE000EDFC)
T05C8 11568:307.126 - 1.039ms returns 0
T05C8 11568:307.169 JLINK_GetHWStatus(...)
T05C8 11568:308.110 - 0.945ms returns 0x00
T05C8 11568:308.142 JLINK_GetNumBPUnits(Type = 0xFFFFFF00)
T05C8 11568:308.148 - 0.009ms returns 0x06
T05C8 11568:308.155 JLINK_GetNumBPUnits(Type = 0xF0)
T05C8 11568:308.160 - 0.007ms returns 0x2000
T05C8 11568:308.168 JLINK_GetNumWPUnits()
T05C8 11568:308.172 - 0.007ms returns 0x04
T05C8 11568:308.190 JLINK_GetSpeed()
T05C8 11568:308.195 - 0.007ms returns 0xC350
T05C8 11568:308.208 JLINK_ReadMemU32(0xE000E004, 0x0001 Items, ...)
T05C8 11568:308.217    -- CPU_ReadMem(4 bytes @ 0xE000E004)
T05C8 11568:309.180   Data:  01 00 00 00
T05C8 11568:309.190 - 0.984ms returns 1
T05C8 11568:309.199 JLINK_ReadMemU32(0xE000E004, 0x0001 Items, ...)
T05C8 11568:309.208    -- CPU_ReadMem(4 bytes @ 0xE000E004)
T05C8 11568:310.223   Data:  01 00 00 00
T05C8 11568:310.233 - 1.036ms returns 1
T05C8 11568:310.243 JLINK_WriteMemEx(0xE0001000, 0x001C Bytes, ..., Flags = 0x02000004)
T05C8 11568:310.250   Data:  01 00 00 00 00 00 00 00 00 00 00 00 00 00 00 00 ...
T05C8 11568:310.690    -- CPU_WriteMem(28 bytes @ 0xE0001000)
T05C8 11568:311.320 - 1.081ms returns 0x1C
T05C8 11568:311.335 JLINK_ReadReg(R15 (PC))
T05C8 11568:311.341 - 0.009ms returns 0x080001CC
T05C8 11568:311.348 JLINK_ReadReg(XPSR)
T05C8 11568:311.354 - 0.008ms returns 0x01000000
T05C8 11568:317.462   JLINK_ReadMemEx(0xE0001004, 0x0004 Bytes, ..., Flags = 0x02000000)
T05C8 11568:317.483   Data:  00 00 00 00
T05C8 11568:317.491    - DWT_CYCCNT
T05C8 11568:317.499 - 0.039ms returns 0x04
T05C8 11568:374.073 JLINK_SetResetType(JLINKARM_CM3_RESET_TYPE_NORMAL)
T05C8 11568:374.090 - 0.020ms returns JLINKARM_CM3_RESET_TYPE_NORMAL
T05C8 11568:374.097 JLINK_Reset()
T05C8 11568:374.111    -- CPU_WriteMem(4 bytes @ 0xE000EDF0)
T05C8 11568:374.842    -- CPU_WriteMem(4 bytes @ 0xE000EDFC)
T05C8 11568:375.941   Reset: Halt core after reset via DEMCR.VC_CORERESET.
T05C8 11568:377.691   Reset: Reset device via AIRCR.SYSRESETREQ.
T05C8 11568:377.713    -- CPU_WriteMem(4 bytes @ 0xE000ED0C)
T05C8 11568:432.429    -- CPU_ReadMem(4 bytes @ 0xE000EDF0)
T05C8 11568:433.418    -- CPU_ReadMem(4 bytes @ 0xE000EDF0)
T05C8 11568:434.628    -- CPU_WriteMem(4 bytes @ 0xE000EDF0)
T05C8 11568:435.667    -- CPU_WriteMem(4 bytes @ 0xE000EDFC)
T05C8 11568:442.882    -- CPU_ReadMem(4 bytes @ 0xE000EDF0)
T05C8 11568:446.098    -- CPU_WriteMem(4 bytes @ 0xE0002000)
T05C8 11568:446.802    -- CPU_ReadMem(4 bytes @ 0xE000EDFC)
T05C8 11568:447.799    -- CPU_ReadMem(4 bytes @ 0xE0001000)
T05C8 11568:448.872 - 74.779ms
T05C8 11568:448.914 JLINK_ReadReg(R15 (PC))
T05C8 11568:448.922 - 0.010ms returns 0x080001CC
T05C8 11568:448.934 JLINK_ReadReg(XPSR)
T05C8 11568:448.941 - 0.010ms returns 0x01000000
T05C8 11568:615.495   JLINK_ReadMemEx(0x080001CC, 0x003C Bytes, ..., Flags = 0x02000000)
T05C8 11568:615.518    -- CPU_ReadMem(128 bytes @ 0x080001C0)
T05C8 11568:615.978    -- Updating C cache (128 bytes @ 0x080001C0)
T05C8 11568:615.992    -- Read from C cache (60 bytes @ 0x080001CC)
T05C8 11568:616.003   Data:  09 48 80 47 09 48 00 47 FE E7 FE E7 FE E7 FE E7 ...
T05C8 11568:616.018 - 0.528ms returns 0x3C
T05C8 11568:616.030   JLINK_ReadMemEx(0x080001CC, 0x0002 Bytes, ..., Flags = 0x02000000)
T05C8 11568:616.039    -- Read from C cache (2 bytes @ 0x080001CC)
T05C8 11568:616.047   Data:  09 48
T05C8 11568:616.054 - 0.026ms returns 0x02
T05C8 11568:616.133   JLINK_ReadMemEx(0x080001CE, 0x0002 Bytes, ..., Flags = 0x02000000)
T05C8 11568:616.141    -- Read from C cache (2 bytes @ 0x080001CE)
T05C8 11568:616.148   Data:  80 47
T05C8 11568:616.155 - 0.025ms returns 0x02
T05C8 11568:616.170   JLINK_ReadMemEx(0x080001CE, 0x0002 Bytes, ..., Flags = 0x02000000)
T05C8 11568:616.178    -- Read from C cache (2 bytes @ 0x080001CE)
T05C8 11568:616.185   Data:  80 47
T05C8 11568:616.192 - 0.024ms returns 0x02
T05C8 11568:616.199   JLINK_ReadMemEx(0x080001D0, 0x003C Bytes, ..., Flags = 0x02000000)
T05C8 11568:616.206    -- Read from C cache (60 bytes @ 0x080001D0)
T05C8 11568:616.214   Data:  09 48 00 47 FE E7 FE E7 FE E7 FE E7 FE E7 FE E7 ...
T05C8 11568:616.221 - 0.024ms returns 0x3C
T05C8 11568:616.228   JLINK_ReadMemEx(0x080001D0, 0x0002 Bytes, ..., Flags = 0x02000000)
T05C8 11568:616.235    -- Read from C cache (2 bytes @ 0x080001D0)
T05C8 11568:616.242   Data:  09 48
T05C8 11568:616.249 - 0.024ms returns 0x02
T05C8 11569:596.048   JLINK_ReadMemEx(0x080001D0, 0x003C Bytes, ..., Flags = 0x02000000)
T05C8 11569:596.069    -- Read from C cache (60 bytes @ 0x080001D0)
T05C8 11569:596.079   Data:  09 48 00 47 FE E7 FE E7 FE E7 FE E7 FE E7 FE E7 ...
T05C8 11569:596.086 - 0.041ms returns 0x3C
T05C8 11569:596.094   JLINK_ReadMemEx(0x080001D0, 0x0002 Bytes, ..., Flags = 0x02000000)
T05C8 11569:596.101    -- Read from C cache (2 bytes @ 0x080001D0)
T05C8 11569:596.108   Data:  09 48
T05C8 11569:596.115 - 0.024ms returns 0x02
T05C8 11569:596.123   JLINK_ReadMemEx(0x080001D2, 0x0002 Bytes, ..., Flags = 0x02000000)
T05C8 11569:596.130    -- Read from C cache (2 bytes @ 0x080001D2)
T05C8 11569:596.137   Data:  00 47
T05C8 11569:596.144 - 0.023ms returns 0x02
T05C8 11569:761.332 JLINK_ReadReg(R0)
T05C8 11569:761.817 - 0.491ms returns 0x10000000
T05C8 11569:761.830 JLINK_ReadReg(R1)
T05C8 11569:761.836 - 0.008ms returns 0x20000004
T05C8 11569:761.843 JLINK_ReadReg(R2)
T05C8 11569:761.848 - 0.008ms returns 0x00000002
T05C8 11569:761.855 JLINK_ReadReg(R3)
T05C8 11569:761.861 - 0.007ms returns 0x00000003
T05C8 11569:761.868 JLINK_ReadReg(R4)
T05C8 11569:761.873 - 0.007ms returns 0x00000004
T05C8 11569:761.880 JLINK_ReadReg(R5)
T05C8 11569:761.885 - 0.009ms returns 0x00000005
T05C8 11569:761.897 JLINK_ReadReg(R6)
T05C8 11569:761.906 - 0.012ms returns 0x00000006
T05C8 11569:761.916 JLINK_ReadReg(R7)
T05C8 11569:761.923 - 0.010ms returns 0x00000007
T05C8 11569:761.932 JLINK_ReadReg(R8)
T05C8 11569:761.938 - 0.009ms returns 0x00000008
T05C8 11569:761.947 JLINK_ReadReg(R9)
T05C8 11569:761.953 - 0.009ms returns 0x00000009
T05C8 11569:761.962 JLINK_ReadReg(R10)
T05C8 11569:761.970 - 0.010ms returns 0x00000010
T05C8 11569:761.978 JLINK_ReadReg(R11)
T05C8 11569:761.985 - 0.010ms returns 0x00000011
T05C8 11569:761.993 JLINK_ReadReg(R12)
T05C8 11569:762.000 - 0.009ms returns 0x00000012
T05C8 11569:762.008 JLINK_ReadReg(R13 (SP))
T05C8 11569:762.015 - 0.009ms returns 0x20000880
T05C8 11569:762.023 JLINK_ReadReg(R14)
T05C8 11569:762.029 - 0.009ms returns 0xFFFFFFFF
T05C8 11569:762.037 JLINK_ReadReg(R15 (PC))
T05C8 11569:762.044 - 0.009ms returns 0x080001CC
T05C8 11569:762.052 JLINK_ReadReg(XPSR)
T05C8 11569:762.059 - 0.009ms returns 0x01000000
T05C8 11569:762.067 JLINK_ReadReg(MSP)
T05C8 11569:762.074 - 0.050ms returns 0x20000880
T05C8 11569:762.128 JLINK_ReadReg(PSP)
T05C8 11569:762.135 - 0.011ms returns 0x20000218
T05C8 11569:762.144 JLINK_ReadReg(CFBP)
T05C8 11569:762.151 - 0.010ms returns 0x00000000
T05C8 11569:762.182   JLINK_ReadMemEx(0x20000000, 0x0260 Bytes, ..., Flags = 0x02000000)
T05C8 11569:762.200    -- CPU_ReadMem(640 bytes @ 0x20000000)
T05C8 11569:763.395    -- Updating C cache (640 bytes @ 0x20000000)
T05C8 11569:763.407    -- Read from C cache (608 bytes @ 0x20000000)
T05C8 11569:763.415   Data:  10 00 00 20 08 00 00 20 D8 00 00 20 00 00 00 00 ...
T05C8 11569:763.422 - 1.243ms returns 0x260
T05C8 11569:771.372   JLINK_ReadMemEx(0x20000000, 0x0260 Bytes, ..., Flags = 0x02000000)
T05C8 11569:771.396    -- Read from C cache (608 bytes @ 0x20000000)
T05C8 11569:771.404   Data:  10 00 00 20 08 00 00 20 D8 00 00 20 00 00 00 00 ...
T05C8 11569:771.411 - 0.042ms returns 0x260
T05C8 11569:772.229   JLINK_ReadMemEx(0x20000000, 0x0260 Bytes, ..., Flags = 0x02000000)
T05C8 11569:772.245    -- Read from C cache (608 bytes @ 0x20000000)
T05C8 11569:772.254   Data:  10 00 00 20 08 00 00 20 D8 00 00 20 00 00 00 00 ...
T05C8 11569:772.261 - 0.035ms returns 0x260
T05C8 11569:834.045   JLINK_ReadMemEx(0x20000000, 0x0270 Bytes, ..., Flags = 0x02000000)
T05C8 11569:834.070    -- Read from C cache (624 bytes @ 0x20000000)
T05C8 11569:834.078   Data:  10 00 00 20 08 00 00 20 D8 00 00 20 00 00 00 00 ...
T05C8 11569:834.085 - 0.043ms returns 0x270
T05C8 11569:834.825   JLINK_ReadMemEx(0x20000000, 0x0270 Bytes, ..., Flags = 0x02000000)
T05C8 11569:834.841    -- Read from C cache (624 bytes @ 0x20000000)
T05C8 11569:834.849   Data:  10 00 00 20 08 00 00 20 D8 00 00 20 00 00 00 00 ...
T05C8 11569:834.856 - 0.034ms returns 0x270
T05C8 11569:919.015   JLINK_ReadMemEx(0x20000000, 0x0260 Bytes, ..., Flags = 0x02000000)
T05C8 11569:919.040    -- Read from C cache (608 bytes @ 0x20000000)
T05C8 11569:919.048   Data:  10 00 00 20 08 00 00 20 D8 00 00 20 00 00 00 00 ...
T05C8 11569:919.055 - 0.044ms returns 0x260
T05C8 11569:920.161   JLINK_ReadMemEx(0x20000000, 0x0260 Bytes, ..., Flags = 0x02000000)
T05C8 11569:920.175    -- Read from C cache (608 bytes @ 0x20000000)
T05C8 11569:920.183   Data:  10 00 00 20 08 00 00 20 D8 00 00 20 00 00 00 00 ...
T05C8 11569:920.190 - 0.032ms returns 0x260
T05C8 11570:449.426   JLINK_ReadMemEx(0x20000000, 0x0004 Bytes, ..., Flags = 0x02000000)
T05C8 11570:449.451    -- Read from C cache (4 bytes @ 0x20000000)
T05C8 11570:449.458   Data:  10 00 00 20
T05C8 11570:449.466 - 0.043ms returns 0x04
T05C8 11570:450.071   JLINK_ReadMemEx(0x20000000, 0x0004 Bytes, ..., Flags = 0x02000000)
T05C8 11570:450.085    -- Read from C cache (4 bytes @ 0x20000000)
T05C8 11570:450.098   Data:  10 00 00 20
T05C8 11570:450.111 - 0.046ms returns 0x04
T05C8 11570:450.144   JLINK_ReadMemEx(0x20000000, 0x0004 Bytes, ..., Flags = 0x02000000)
T05C8 11570:450.157    -- Read from C cache (4 bytes @ 0x20000000)
T05C8 11570:450.167   Data:  10 00 00 20
T05C8 11570:450.176 - 0.037ms returns 0x04
T05C8 11570:451.508   JLINK_ReadMemEx(0x20000004, 0x0004 Bytes, ..., Flags = 0x02000000)
T05C8 11570:451.525    -- Read from C cache (4 bytes @ 0x20000004)
T05C8 11570:451.533   Data:  08 00 00 20
T05C8 11570:451.540 - 0.036ms returns 0x04
T05C8 11570:451.557   JLINK_ReadMemEx(0x20000004, 0x0004 Bytes, ..., Flags = 0x02000000)
T05C8 11570:451.566    -- Read from C cache (4 bytes @ 0x20000004)
T05C8 11570:451.573   Data:  08 00 00 20
T05C8 11570:451.580 - 0.026ms returns 0x04
T05C8 11570:451.601   JLINK_ReadMemEx(0x20000004, 0x0004 Bytes, ..., Flags = 0x02000000)
T05C8 11570:451.610    -- Read from C cache (4 bytes @ 0x20000004)
T05C8 11570:451.617   Data:  08 00 00 20
T05C8 11570:451.624 - 0.026ms returns 0x04
T05C8 11570:460.536   JLINK_ReadMemEx(0x20000000, 0x0260 Bytes, ..., Flags = 0x02000000)
T05C8 11570:460.557    -- Read from C cache (608 bytes @ 0x20000000)
T05C8 11570:460.566   Data:  10 00 00 20 08 00 00 20 D8 00 00 20 00 00 00 00 ...
T05C8 11570:460.573 - 0.040ms returns 0x260
T05C8 11570:464.010   JLINK_ReadMemEx(0x20000000, 0x0260 Bytes, ..., Flags = 0x02000000)
T05C8 11570:464.029    -- Read from C cache (608 bytes @ 0x20000000)
T05C8 11570:464.037   Data:  10 00 00 20 08 00 00 20 D8 00 00 20 00 00 00 00 ...
T05C8 11570:464.046 - 0.039ms returns 0x260
T4354 11570:472.185   JLINK_ReadMemEx(0x080001CC, 0x0002 Bytes, ..., Flags = 0x02000000)
T4354 11570:472.207    -- Read from C cache (2 bytes @ 0x080001CC)
T4354 11570:472.215   Data:  09 48
T4354 11570:472.222 - 0.041ms returns 0x02
T4354 11570:472.239   JLINK_SetBPEx(Addr = 0x080004A0, Type = 0xFFFFFFF2)
T4354 11570:472.248 - 0.012ms returns 0x00000001
T4354 11570:472.260 JLINK_Go()
T4354 11570:472.719    -- CPU_WriteMem(4 bytes @ 0xE0002000)
T4354 11570:473.678    -- CPU_ReadMem(4 bytes @ 0xE0001000)
T4354 11570:474.695    -- CPU_WriteMem(4 bytes @ 0xE0002008)
T4354 11570:474.708    -- CPU_WriteMem(4 bytes @ 0xE000200C)
T4354 11570:474.715    -- CPU_WriteMem(4 bytes @ 0xE0002010)
T4354 11570:474.723    -- CPU_WriteMem(4 bytes @ 0xE0002014)
T4354 11570:474.730    -- CPU_WriteMem(4 bytes @ 0xE0002018)
T4354 11570:474.737    -- CPU_WriteMem(4 bytes @ 0xE000201C)
T4354 11570:475.966    -- CPU_WriteMem(4 bytes @ 0xE0001004)
T4354 11570:477.808 - 5.555ms
T4354 11570:578.780 JLINK_IsHalted()
T4354 11570:580.656 - 1.883ms returns TRUE
T4354 11570:580.673 JLINK_Halt()
T4354 11570:580.678 - 0.008ms returns 0x00
T4354 11570:580.685 JLINK_IsHalted()
T4354 11570:580.690 - 0.007ms returns TRUE
T4354 11570:580.697 JLINK_IsHalted()
T4354 11570:580.702 - 0.007ms returns TRUE
T4354 11570:580.709 JLINK_IsHalted()
T4354 11570:580.714 - 0.007ms returns TRUE
T4354 11570:580.724 JLINK_ReadReg(R15 (PC))
T4354 11570:580.731 - 0.012ms returns 0x080004A0
T4354 11570:580.742 JLINK_ReadReg(XPSR)
T4354 11570:580.754 - 0.015ms returns 0x21000000
T4354 11570:580.775 JLINK_ClrBPEx(BPHandle = 0x00000001)
T4354 11570:580.789 - 0.018ms returns 0x00
T4354 11570:580.804 JLINK_ReadMemU32(0xE000ED30, 0x0001 Items, ...)
T4354 11570:580.818    -- CPU_ReadMem(4 bytes @ 0xE000ED30)
T4354 11570:581.285   Data:  02 00 00 00
T4354 11570:581.300 - 0.499ms returns 1
T4354 11570:581.313 JLINK_ReadMemU32(0xE0001028, 0x0001 Items, ...)
T4354 11570:581.327    -- CPU_ReadMem(4 bytes @ 0xE0001028)
T4354 11570:582.387   Data:  00 00 00 00
T4354 11570:582.399    - DWT_FUNC[0]
T4354 11570:582.406 - 1.095ms returns 1
T4354 11570:582.416 JLINK_ReadMemU32(0xE0001038, 0x0001 Items, ...)
T4354 11570:582.426    -- CPU_ReadMem(4 bytes @ 0xE0001038)
T4354 11570:583.348   Data:  00 02 00 00
T4354 11570:583.365    - DWT_FUNC[1]
T4354 11570:583.375 - 0.963ms returns 1
T4354 11570:583.390 JLINK_ReadMemU32(0xE0001048, 0x0001 Items, ...)
T4354 11570:583.405    -- CPU_ReadMem(4 bytes @ 0xE0001048)
T4354 11570:584.375   Data:  00 00 00 00
T4354 11570:584.393    - DWT_FUNC[2]
T4354 11570:584.407 - 1.022ms returns 1
T4354 11570:584.424 JLINK_ReadMemU32(0xE0001058, 0x0001 Items, ...)
T4354 11570:584.435    -- CPU_ReadMem(4 bytes @ 0xE0001058)
T4354 11570:585.467   Data:  00 00 00 00
T4354 11570:585.479    - DWT_FUNC[3]
T4354 11570:585.486 - 1.064ms returns 1
T4354 11570:585.534 JLINK_ReadReg(R0)
T4354 11570:585.542 - 0.011ms returns 0x20000280
T4354 11570:585.549 JLINK_ReadReg(R1)
T4354 11570:585.558 - 0.014ms returns 0x20000480
T4354 11570:585.572 JLINK_ReadReg(R2)
T4354 11570:585.581 - 0.011ms returns 0x20000480
T4354 11570:585.588 JLINK_ReadReg(R3)
T4354 11570:585.593 - 0.007ms returns 0x20000480
T4354 11570:585.600 JLINK_ReadReg(R4)
T4354 11570:585.605 - 0.007ms returns 0x00000000
T4354 11570:585.615 JLINK_ReadReg(R5)
T4354 11570:585.624 - 0.013ms returns 0x20000220
T4354 11570:585.638 JLINK_ReadReg(R6)
T4354 11570:585.644 - 0.009ms returns 0x00000000
T4354 11570:585.651 JLINK_ReadReg(R7)
T4354 11570:585.656 - 0.007ms returns 0x00000000
T4354 11570:585.663 JLINK_ReadReg(R8)
T4354 11570:585.668 - 0.008ms returns 0x00000000
T4354 11570:585.679 JLINK_ReadReg(R9)
T4354 11570:585.691 - 0.017ms returns 0x00000009
T4354 11570:585.706 JLINK_ReadReg(R10)
T4354 11570:585.761 - 0.058ms returns 0x0800062C
T4354 11570:585.771 JLINK_ReadReg(R11)
T4354 11570:585.778 - 0.010ms returns 0x00000000
T4354 11570:585.787 JLINK_ReadReg(R12)
T4354 11570:585.794 - 0.010ms returns 0x20000260
T4354 11570:585.803 JLINK_ReadReg(R13 (SP))
T4354 11570:585.810 - 0.010ms returns 0x20000880
T4354 11570:585.819 JLINK_ReadReg(R14)
T4354 11570:585.825 - 0.010ms returns 0x080001BB
T4354 11570:585.834 JLINK_ReadReg(R15 (PC))
T4354 11570:585.840 - 0.009ms returns 0x080004A0
T4354 11570:585.849 JLINK_ReadReg(XPSR)
T4354 11570:585.857 - 0.011ms returns 0x21000000
T4354 11570:585.865 JLINK_ReadReg(MSP)
T4354 11570:585.873 - 0.010ms returns 0x20000880
T4354 11570:585.880 JLINK_ReadReg(PSP)
T4354 11570:585.885 - 0.007ms returns 0x20000218
T4354 11570:585.892 JLINK_ReadReg(CFBP)
T4354 11570:585.896 - 0.007ms returns 0x00000000
T05C8 11570:588.205 JLINK_ReadMemU32(0xE0001004, 0x0001 Items, ...)
T05C8 11570:588.222    -- CPU_ReadMem(4 bytes @ 0xE0001004)
T05C8 11570:588.661   Data:  61 73 00 00
T05C8 11570:588.672    - DWT_CYCCNT
T05C8 11570:588.680 - 0.477ms returns 1
T05C8 11570:588.824   JLINK_ReadMemEx(0x20000000, 0x0004 Bytes, ..., Flags = 0x02000000)
T05C8 11570:588.838    -- CPU_ReadMem(64 bytes @ 0x20000000)
T05C8 11570:589.678    -- Updating C cache (64 bytes @ 0x20000000)
T05C8 11570:589.689    -- Read from C cache (4 bytes @ 0x20000000)
T05C8 11570:589.697   Data:  00 00 00 00
T05C8 11570:589.704 - 0.885ms returns 0x04
T05C8 11570:589.791   JLINK_ReadMemEx(0x20000004, 0x0004 Bytes, ..., Flags = 0x02000000)
T05C8 11570:589.804    -- Read from C cache (4 bytes @ 0x20000004)
T05C8 11570:589.812   Data:  00 00 00 00
T05C8 11570:589.819 - 0.031ms returns 0x04
T05C8 11570:589.866   JLINK_ReadMemEx(0x20000000, 0x0260 Bytes, ..., Flags = 0x02000000)
T05C8 11570:589.877    -- CPU_ReadMem(576 bytes @ 0x20000040)
T05C8 11570:591.137    -- Updating C cache (576 bytes @ 0x20000040)
T05C8 11570:591.148    -- Read from C cache (608 bytes @ 0x20000000)
T05C8 11570:591.156   Data:  00 00 00 00 00 00 00 00 00 00 00 00 00 00 00 00 ...
T05C8 11570:591.163 - 1.300ms returns 0x260
T05C8 11570:594.029   JLINK_ReadMemEx(0x080004A0, 0x003C Bytes, ..., Flags = 0x02000000)
T05C8 11570:594.048    -- CPU_ReadMem(128 bytes @ 0x08000480)
T05C8 11570:594.562    -- Updating C cache (128 bytes @ 0x08000480)
T05C8 11570:594.574    -- Read from C cache (60 bytes @ 0x080004A0)
T05C8 11570:594.582   Data:  FF 22 51 1C 0E 48 FF F7 B1 FE FF 22 51 1C 0D 48 ...
T05C8 11570:594.589 - 0.563ms returns 0x3C
T05C8 11570:594.600   JLINK_ReadMemEx(0x080004A0, 0x0002 Bytes, ..., Flags = 0x02000000)
T05C8 11570:594.608    -- Read from C cache (2 bytes @ 0x080004A0)
T05C8 11570:594.615   Data:  FF 22
T05C8 11570:594.623 - 0.026ms returns 0x02
T05C8 11570:594.631   JLINK_ReadMemEx(0x080004A2, 0x0002 Bytes, ..., Flags = 0x02000000)
T05C8 11570:594.639    -- Read from C cache (2 bytes @ 0x080004A2)
T05C8 11570:594.646   Data:  51 1C
T05C8 11570:594.653 - 0.025ms returns 0x02
T05C8 11570:594.667   JLINK_ReadMemEx(0x080004A2, 0x0002 Bytes, ..., Flags = 0x02000000)
T05C8 11570:594.675    -- Read from C cache (2 bytes @ 0x080004A2)
T05C8 11570:594.682   Data:  51 1C
T05C8 11570:594.689 - 0.025ms returns 0x02
T05C8 11570:594.700   JLINK_ReadMemEx(0x080004A4, 0x003C Bytes, ..., Flags = 0x02000000)
T05C8 11570:594.713    -- Read from C cache (60 bytes @ 0x080004A4)
T05C8 11570:594.726   Data:  0E 48 FF F7 B1 FE FF 22 51 1C 0D 48 FF F7 AC FE ...
T05C8 11570:594.733 - 0.036ms returns 0x3C
T05C8 11570:594.741   JLINK_ReadMemEx(0x080004A4, 0x0002 Bytes, ..., Flags = 0x02000000)
T05C8 11570:594.749    -- Read from C cache (2 bytes @ 0x080004A4)
T05C8 11570:594.756   Data:  0E 48
T05C8 11570:594.763 - 0.025ms returns 0x02
T05C8 11570:594.774   JLINK_ReadMemEx(0x080004A4, 0x003C Bytes, ..., Flags = 0x02000000)
T05C8 11570:594.782    -- Read from C cache (60 bytes @ 0x080004A4)
T05C8 11570:594.790   Data:  0E 48 FF F7 B1 FE FF 22 51 1C 0D 48 FF F7 AC FE ...
T05C8 11570:594.797 - 0.054ms returns 0x3C
T05C8 11570:594.836   JLINK_ReadMemEx(0x080004A4, 0x0002 Bytes, ..., Flags = 0x02000000)
T05C8 11570:594.843    -- Read from C cache (2 bytes @ 0x080004A4)
T05C8 11570:594.850   Data:  0E 48
T05C8 11570:594.857 - 0.024ms returns 0x02
T05C8 11570:594.864   JLINK_ReadMemEx(0x080004A6, 0x0002 Bytes, ..., Flags = 0x02000000)
T05C8 11570:594.872    -- Read from C cache (2 bytes @ 0x080004A6)
T05C8 11570:594.879   Data:  FF F7
T05C8 11570:594.888 - 0.025ms returns 0x02
T05C8 11570:594.898   JLINK_ReadMemEx(0x080004A6, 0x0002 Bytes, ..., Flags = 0x02000000)
T05C8 11570:594.905    -- Read from C cache (2 bytes @ 0x080004A6)
T05C8 11570:594.912   Data:  FF F7
T05C8 11570:594.919 - 0.024ms returns 0x02
T05C8 11570:594.926   JLINK_ReadMemEx(0x080004A8, 0x003C Bytes, ..., Flags = 0x02000000)
T05C8 11570:594.934    -- Read from C cache (60 bytes @ 0x080004A8)
T05C8 11570:594.941   Data:  B1 FE FF 22 51 1C 0D 48 FF F7 AC FE 0C 4B 4F F0 ...
T05C8 11570:594.948 - 0.024ms returns 0x3C
T05C8 11570:594.955   JLINK_ReadMemEx(0x080004A8, 0x0002 Bytes, ..., Flags = 0x02000000)
T05C8 11570:594.963    -- Read from C cache (2 bytes @ 0x080004A8)
T05C8 11570:594.970   Data:  B1 FE
T05C8 11570:594.977 - 0.025ms returns 0x02
T4354 11575:064.401   JLINK_ReadMemEx(0x080004A0, 0x0002 Bytes, ..., Flags = 0x02000000)
T4354 11575:064.420    -- Read from C cache (2 bytes @ 0x080004A0)
T4354 11575:064.428   Data:  FF 22
T4354 11575:064.435 - 0.038ms returns 0x02
T4354 11575:064.448   JLINK_SetBPEx(Addr = 0x08000604, Type = 0xFFFFFFF2)
T4354 11575:064.458 - 0.013ms returns 0x00000002
T4354 11575:064.468   JLINK_SetBPEx(Addr = 0x080005FA, Type = 0xFFFFFFF2)
T4354 11575:064.475 - 0.010ms returns 0x00000003
T4354 11575:064.486 JLINK_Go()
T4354 11575:064.984    -- CPU_WriteMem(4 bytes @ 0xE0002000)
T4354 11575:065.980    -- CPU_WriteMem(4 bytes @ 0xE0002000)
T4354 11575:067.080    -- CPU_ReadMem(4 bytes @ 0xE0001000)
T4354 11575:068.250    -- CPU_WriteMem(4 bytes @ 0xE0002008)
T4354 11575:068.262    -- CPU_WriteMem(4 bytes @ 0xE000200C)
T4354 11575:070.139 - 5.664ms
T4354 11575:170.637 JLINK_IsHalted()
T4354 11575:172.608 - 1.977ms returns TRUE
T4354 11575:172.624 JLINK_Halt()
T4354 11575:172.629 - 0.007ms returns 0x00
T4354 11575:172.636 JLINK_IsHalted()
T4354 11575:172.641 - 0.007ms returns TRUE
T4354 11575:172.648 JLINK_IsHalted()
T4354 11575:172.652 - 0.007ms returns TRUE
T4354 11575:172.659 JLINK_IsHalted()
T4354 11575:172.664 - 0.007ms returns TRUE
T4354 11575:172.673 JLINK_ReadReg(R15 (PC))
T4354 11575:172.680 - 0.009ms returns 0x080005FA
T4354 11575:172.687 JLINK_ReadReg(XPSR)
T4354 11575:172.692 - 0.008ms returns 0x01000000
T4354 11575:172.703 JLINK_ClrBPEx(BPHandle = 0x00000002)
T4354 11575:172.709 - 0.008ms returns 0x00
T4354 11575:172.717 JLINK_ClrBPEx(BPHandle = 0x00000003)
T4354 11575:172.723 - 0.007ms returns 0x00
T4354 11575:172.733 JLINK_ReadMemU32(0xE000ED30, 0x0001 Items, ...)
T4354 11575:172.743    -- CPU_ReadMem(4 bytes @ 0xE000ED30)
T4354 11575:173.353   Data:  02 00 00 00
T4354 11575:173.364 - 0.633ms returns 1
T4354 11575:173.373 JLINK_ReadMemU32(0xE0001028, 0x0001 Items, ...)
T4354 11575:173.381    -- CPU_ReadMem(4 bytes @ 0xE0001028)
T4354 11575:174.265   Data:  00 00 00 00
T4354 11575:174.276    - DWT_FUNC[0]
T4354 11575:174.283 - 0.912ms returns 1
T4354 11575:174.294 JLINK_ReadMemU32(0xE0001038, 0x0001 Items, ...)
T4354 11575:174.302    -- CPU_ReadMem(4 bytes @ 0xE0001038)
T4354 11575:175.448   Data:  00 02 00 00
T4354 11575:175.459    - DWT_FUNC[1]
T4354 11575:175.468 - 1.179ms returns 1
T4354 11575:175.484 JLINK_ReadMemU32(0xE0001048, 0x0001 Items, ...)
T4354 11575:175.497    -- CPU_ReadMem(4 bytes @ 0xE0001048)
T4354 11575:176.395   Data:  00 00 00 00
T4354 11575:176.406    - DWT_FUNC[2]
T4354 11575:176.413 - 0.931ms returns 1
T4354 11575:176.424 JLINK_ReadMemU32(0xE0001058, 0x0001 Items, ...)
T4354 11575:176.432    -- CPU_ReadMem(4 bytes @ 0xE0001058)
T4354 11575:177.331   Data:  00 00 00 00
T4354 11575:177.344    - DWT_FUNC[3]
T4354 11575:177.355 - 0.934ms returns 1
T4354 11575:177.408 JLINK_ReadReg(R0)
T4354 11575:177.415 - 0.010ms returns 0x11111111
T4354 11575:177.422 JLINK_ReadReg(R1)
T4354 11575:177.428 - 0.008ms returns 0x00000001
T4354 11575:177.438 JLINK_ReadReg(R2)
T4354 11575:177.449 - 0.015ms returns 0x00000002
T4354 11575:177.463 JLINK_ReadReg(R3)
T4354 11575:177.469 - 0.008ms returns 0x00000003
T4354 11575:177.476 JLINK_ReadReg(R4)
T4354 11575:177.481 - 0.007ms returns 0x11111111
T4354 11575:177.487 JLINK_ReadReg(R5)
T4354 11575:177.492 - 0.007ms returns 0x11111112
T4354 11575:177.499 JLINK_ReadReg(R6)
T4354 11575:177.504 - 0.007ms returns 0x00000006
T4354 11575:177.510 JLINK_ReadReg(R7)
T4354 11575:177.515 - 0.007ms returns 0x00000007
T4354 11575:177.522 JLINK_ReadReg(R8)
T4354 11575:177.527 - 0.007ms returns 0x00000008
T4354 11575:177.533 JLINK_ReadReg(R9)
T4354 11575:177.538 - 0.007ms returns 0x00000009
T4354 11575:177.545 JLINK_ReadReg(R10)
T4354 11575:177.550 - 0.007ms returns 0x00000010
T4354 11575:177.556 JLINK_ReadReg(R11)
T4354 11575:177.561 - 0.007ms returns 0x00000011
T4354 11575:177.568 JLINK_ReadReg(R12)
T4354 11575:177.573 - 0.007ms returns 0x00000012
T4354 11575:177.579 JLINK_ReadReg(R13 (SP))
T4354 11575:177.584 - 0.007ms returns 0x20000120
T4354 11575:177.591 JLINK_ReadReg(R14)
T4354 11575:177.596 - 0.007ms returns 0x00000014
T4354 11575:177.602 JLINK_ReadReg(R15 (PC))
T4354 11575:177.607 - 0.007ms returns 0x080005FA
T4354 11575:177.614 JLINK_ReadReg(XPSR)
T4354 11575:177.619 - 0.007ms returns 0x01000000
T4354 11575:177.625 JLINK_ReadReg(MSP)
T4354 11575:177.630 - 0.007ms returns 0x20000860
T4354 11575:177.637 JLINK_ReadReg(PSP)
T4354 11575:177.642 - 0.007ms returns 0x20000120
T4354 11575:177.648 JLINK_ReadReg(CFBP)
T4354 11575:177.653 - 0.007ms returns 0x02000000
T05C8 11575:178.496 JLINK_ReadMemU32(0xE0001004, 0x0001 Items, ...)
T05C8 11575:178.510    -- CPU_ReadMem(4 bytes @ 0xE0001004)
T05C8 11575:178.810   Data:  7F 75 00 00
T05C8 11575:178.821    - DWT_CYCCNT
T05C8 11575:178.828 - 0.334ms returns 1
T05C8 11575:178.957   JLINK_ReadMemEx(0x20000000, 0x0004 Bytes, ..., Flags = 0x02000000)
T05C8 11575:178.969    -- CPU_ReadMem(64 bytes @ 0x20000000)
T05C8 11575:179.864    -- Updating C cache (64 bytes @ 0x20000000)
T05C8 11575:179.874    -- Read from C cache (4 bytes @ 0x20000000)
T05C8 11575:179.882   Data:  08 00 00 20
T05C8 11575:179.889 - 0.936ms returns 0x04
T05C8 11575:179.918   JLINK_ReadMemEx(0x20000004, 0x0004 Bytes, ..., Flags = 0x02000000)
T05C8 11575:179.928    -- Read from C cache (4 bytes @ 0x20000004)
T05C8 11575:179.935   Data:  08 00 00 20
T05C8 11575:179.942 - 0.026ms returns 0x04
T05C8 11575:179.989   JLINK_ReadMemEx(0x20000000, 0x0260 Bytes, ..., Flags = 0x02000000)
T05C8 11575:179.999    -- CPU_ReadMem(576 bytes @ 0x20000040)
T05C8 11575:181.360    -- Updating C cache (576 bytes @ 0x20000040)
T05C8 11575:181.409    -- Read from C cache (608 bytes @ 0x20000000)
T05C8 11575:181.446   Data:  08 00 00 20 08 00 00 20 E0 00 00 20 00 00 00 00 ...
T05C8 11575:181.461 - 1.475ms returns 0x260
T4354 11575:618.804   JLINK_ReadMemEx(0x080005FA, 0x0002 Bytes, ..., Flags = 0x02000000)
T4354 11575:618.828    -- CPU_ReadMem(64 bytes @ 0x080005C0)
T4354 11575:619.382    -- Updating C cache (64 bytes @ 0x080005C0)
T4354 11575:619.394    -- Read from C cache (2 bytes @ 0x080005FA)
T4354 11575:619.402   Data:  FF F7
T4354 11575:619.409 - 0.608ms returns 0x02
T4354 11575:619.425 JLINK_Step()
T4354 11575:619.433    -- Read from C cache (2 bytes @ 0x080005FA)
T4354 11575:619.441    -- CPU_ReadMem(4 bytes @ 0xE000ED18)
T4354 11575:620.375    -- CPU_WriteMem(4 bytes @ 0xE000ED18)
T4354 11575:621.445    -- CPU_ReadMem(4 bytes @ 0xE000ED18)
T4354 11575:622.492    -- CPU_WriteMem(4 bytes @ 0xE000ED18)
T4354 11575:623.534    -- Read from C cache (2 bytes @ 0x080005FC)
T4354 11575:623.547    -- Simulated
T4354 11575:623.554 - 4.132ms returns 0x00
T4354 11575:623.566 JLINK_ReadReg(R15 (PC))
T4354 11575:623.573 - 0.009ms returns 0x080005AC
T4354 11575:623.582 JLINK_ReadReg(XPSR)
T4354 11575:623.589 - 0.009ms returns 0x01000000
T4354 11575:623.602   JLINK_SetBPEx(Addr = 0x08000604, Type = 0xFFFFFFF2)
T4354 11575:623.611 - 0.012ms returns 0x00000004
T4354 11575:623.620   JLINK_SetBPEx(Addr = 0x080005FA, Type = 0xFFFFFFF2)
T4354 11575:623.628 - 0.010ms returns 0x00000005
T4354 11575:623.638 JLINK_Go()
T4354 11575:623.646    -- CPU_WriteMem(4 bytes @ 0xE0002000)
T4354 11575:624.563    -- CPU_WriteMem(4 bytes @ 0xE0002000)
T4354 11575:625.757    -- CPU_ReadMem(4 bytes @ 0xE0001000)
T4354 11575:626.634    -- CPU_WriteMem(4 bytes @ 0xE0001004)
T4354 11575:629.571 - 5.938ms
T4354 11575:730.277 JLINK_IsHalted()
T4354 11575:732.990 - 2.748ms returns TRUE
T4354 11575:733.062 JLINK_Halt()
T4354 11575:733.083 - 0.031ms returns 0x00
T4354 11575:733.110 JLINK_IsHalted()
T4354 11575:733.129 - 0.029ms returns TRUE
T4354 11575:733.156 JLINK_IsHalted()
T4354 11575:733.175 - 0.028ms returns TRUE
T4354 11575:733.200 JLINK_IsHalted()
T4354 11575:733.219 - 0.028ms returns TRUE
T4354 11575:733.253 JLINK_ReadReg(R15 (PC))
T4354 11575:733.278 - 0.034ms returns 0x08000604
T4354 11575:733.305 JLINK_ReadReg(XPSR)
T4354 11575:733.325 - 0.029ms returns 0x01000000
T4354 11575:733.368 JLINK_ClrBPEx(BPHandle = 0x00000004)
T4354 11575:733.390 - 0.031ms returns 0x00
T4354 11575:733.422 JLINK_ClrBPEx(BPHandle = 0x00000005)
T4354 11575:733.442 - 0.029ms returns 0x00
T4354 11575:733.483 JLINK_ReadMemU32(0xE000ED30, 0x0001 Items, ...)
T4354 11575:733.515    -- CPU_ReadMem(4 bytes @ 0xE000ED30)
T4354 11575:734.978   Data:  02 00 00 00
T4354 11575:735.033 - 1.562ms returns 1
T4354 11575:735.074 JLINK_ReadMemU32(0xE0001028, 0x0001 Items, ...)
T4354 11575:735.115    -- CPU_ReadMem(4 bytes @ 0xE0001028)
T4354 11575:735.858   Data:  00 00 00 00
T4354 11575:735.901    - DWT_FUNC[0]
T4354 11575:735.928 - 0.864ms returns 1
T4354 11575:735.969 JLINK_ReadMemU32(0xE0001038, 0x0001 Items, ...)
T4354 11575:736.017    -- CPU_ReadMem(4 bytes @ 0xE0001038)
T4354 11575:736.869   Data:  00 02 00 00
T4354 11575:736.914    - DWT_FUNC[1]
T4354 11575:736.942 - 0.988ms returns 1
T4354 11575:736.983 JLINK_ReadMemU32(0xE0001048, 0x0001 Items, ...)
T4354 11575:737.019    -- CPU_ReadMem(4 bytes @ 0xE0001048)
T4354 11575:737.802   Data:  00 00 00 00
T4354 11575:737.847    - DWT_FUNC[2]
T4354 11575:737.874 - 0.901ms returns 1
T4354 11575:737.910 JLINK_ReadMemU32(0xE0001058, 0x0001 Items, ...)
T4354 11575:737.951    -- CPU_ReadMem(4 bytes @ 0xE0001058)
T4354 11575:738.881   Data:  00 00 00 00
T4354 11575:738.925    - DWT_FUNC[3]
T4354 11575:738.958 - 1.068ms returns 1
T4354 11575:739.148 JLINK_ReadReg(R0)
T4354 11575:739.183 - 0.046ms returns 0x22222222
T4354 11575:739.210 JLINK_ReadReg(R1)
T4354 11575:739.230 - 0.029ms returns 0x00000001
T4354 11575:739.255 JLINK_ReadReg(R2)
T4354 11575:739.274 - 0.028ms returns 0x00000002
T4354 11575:739.300 JLINK_ReadReg(R3)
T4354 11575:739.319 - 0.028ms returns 0x00000003
T4354 11575:739.344 JLINK_ReadReg(R4)
T4354 11575:739.363 - 0.028ms returns 0x00000004
T4354 11575:739.388 JLINK_ReadReg(R5)
T4354 11575:739.407 - 0.028ms returns 0x00000005
T4354 11575:739.433 JLINK_ReadReg(R6)
T4354 11575:739.451 - 0.028ms returns 0x00000006
T4354 11575:739.477 JLINK_ReadReg(R7)
T4354 11575:739.495 - 0.028ms returns 0x00000007
T4354 11575:739.521 JLINK_ReadReg(R8)
T4354 11575:739.540 - 0.028ms returns 0x00000008
T4354 11575:739.565 JLINK_ReadReg(R9)
T4354 11575:739.584 - 0.028ms returns 0x00000009
T4354 11575:739.610 JLINK_ReadReg(R10)
T4354 11575:739.628 - 0.028ms returns 0x00000010
T4354 11575:739.654 JLINK_ReadReg(R11)
T4354 11575:739.673 - 0.028ms returns 0x00000011
T4354 11575:739.698 JLINK_ReadReg(R12)
T4354 11575:739.717 - 0.028ms returns 0x00000012
T4354 11575:739.742 JLINK_ReadReg(R13 (SP))
T4354 11575:739.762 - 0.029ms returns 0x20000220
T4354 11575:739.788 JLINK_ReadReg(R14)
T4354 11575:739.806 - 0.028ms returns 0x00000014
T4354 11575:739.832 JLINK_ReadReg(R15 (PC))
T4354 11575:739.851 - 0.028ms returns 0x08000604
T4354 11575:739.885 JLINK_ReadReg(XPSR)
T4354 11575:739.909 - 0.033ms returns 0x01000000
T4354 11575:739.935 JLINK_ReadReg(MSP)
T4354 11575:739.961 - 0.054ms returns 0x20000860
T4354 11575:740.019 JLINK_ReadReg(PSP)
T4354 11575:740.042 - 0.033ms returns 0x20000220
T4354 11575:740.068 JLINK_ReadReg(CFBP)
T4354 11575:740.087 - 0.028ms returns 0x02000000
T05C8 11575:746.532 JLINK_ReadMemU32(0xE0001004, 0x0001 Items, ...)
T05C8 11575:746.582    -- CPU_ReadMem(4 bytes @ 0xE0001004)
T05C8 11575:747.192   Data:  DB 75 00 00
T05C8 11575:747.233    - DWT_CYCCNT
T05C8 11575:747.260 - 0.739ms returns 1
T05C8 11575:747.707   JLINK_ReadMemEx(0x20000000, 0x0004 Bytes, ..., Flags = 0x02000000)
T05C8 11575:747.755    -- CPU_ReadMem(64 bytes @ 0x20000000)
T05C8 11575:748.340    -- Updating C cache (64 bytes @ 0x20000000)
T05C8 11575:748.385    -- Read from C cache (4 bytes @ 0x20000000)
T05C8 11575:748.415   Data:  10 00 00 20
T05C8 11575:748.444 - 0.750ms returns 0x04
T05C8 11575:748.545   JLINK_ReadMemEx(0x20000004, 0x0004 Bytes, ..., Flags = 0x02000000)
T05C8 11575:748.583    -- Read from C cache (4 bytes @ 0x20000004)
T05C8 11575:748.612   Data:  10 00 00 20
T05C8 11575:748.639 - 0.107ms returns 0x04
T05C8 11575:748.783   JLINK_ReadMemEx(0x20000000, 0x0260 Bytes, ..., Flags = 0x02000000)
T05C8 11575:748.824    -- CPU_ReadMem(576 bytes @ 0x20000040)
T05C8 11575:749.964    -- Updating C cache (576 bytes @ 0x20000040)
T05C8 11575:750.005    -- Read from C cache (608 bytes @ 0x20000000)
T05C8 11575:750.036   Data:  10 00 00 20 10 00 00 20 D8 00 00 20 00 00 00 00 ...
T05C8 11575:750.064 - 1.293ms returns 0x260
T05C8 11575:760.089   JLINK_ReadMemEx(0x08000604, 0x003C Bytes, ..., Flags = 0x02000000)
T05C8 11575:760.134    -- CPU_ReadMem(64 bytes @ 0x08000600)
T05C8 11575:760.805    -- Updating C cache (64 bytes @ 0x08000600)
T05C8 11575:760.830    -- Read from C cache (60 bytes @ 0x08000604)
T05C8 11575:760.849   Data:  FF F7 D2 FF FB E7 00 00 2C 06 00 08 00 00 00 20 ...
T05C8 11575:760.864 - 0.783ms returns 0x3C
T05C8 11575:760.892   JLINK_ReadMemEx(0x08000604, 0x0002 Bytes, ..., Flags = 0x02000000)
T05C8 11575:760.928    -- Read from C cache (2 bytes @ 0x08000604)
T05C8 11575:760.944   Data:  FF F7
T05C8 11575:760.959 - 0.074ms returns 0x02
T05C8 11575:760.977   JLINK_ReadMemEx(0x08000606, 0x0002 Bytes, ..., Flags = 0x02000000)
T05C8 11575:760.993    -- Read from C cache (2 bytes @ 0x08000606)
T05C8 11575:761.008   Data:  D2 FF
T05C8 11575:761.023 - 0.051ms returns 0x02
T05C8 11575:761.055   JLINK_ReadMemEx(0x08000608, 0x003C Bytes, ..., Flags = 0x02000000)
T05C8 11575:761.075    -- CPU_ReadMem(64 bytes @ 0x08000640)
T05C8 11575:762.201    -- Updating C cache (64 bytes @ 0x08000640)
T05C8 11575:762.237    -- Read from C cache (60 bytes @ 0x08000608)
T05C8 11575:762.258   Data:  FB E7 00 00 2C 06 00 08 00 00 00 20 20 00 00 00 ...
T05C8 11575:762.274 - 1.226ms returns 0x3C
T05C8 11575:762.298   JLINK_ReadMemEx(0x08000608, 0x0002 Bytes, ..., Flags = 0x02000000)
T05C8 11575:762.319    -- Read from C cache (2 bytes @ 0x08000608)
T05C8 11575:762.335   Data:  FB E7
T05C8 11575:762.351 - 0.060ms returns 0x02
T05C8 11575:762.371   JLINK_ReadMemEx(0x0800060A, 0x0002 Bytes, ..., Flags = 0x02000000)
T05C8 11575:762.388    -- Read from C cache (2 bytes @ 0x0800060A)
T05C8 11575:762.404   Data:  00 00
T05C8 11575:762.422 - 0.058ms returns 0x02
T05C8 11575:762.468   JLINK_ReadMemEx(0x0800060A, 0x0002 Bytes, ..., Flags = 0x02000000)
T05C8 11575:762.488    -- Read from C cache (2 bytes @ 0x0800060A)
T05C8 11575:762.505   Data:  00 00
T05C8 11575:762.524 - 0.063ms returns 0x02
T05C8 11575:762.542   JLINK_ReadMemEx(0x0800060C, 0x003C Bytes, ..., Flags = 0x02000000)
T05C8 11575:762.561    -- Read from C cache (60 bytes @ 0x0800060C)
T05C8 11575:762.582   Data:  2C 06 00 08 00 00 00 20 20 00 00 00 6C 01 00 08 ...
T05C8 11575:762.598 - 0.062ms returns 0x3C
T05C8 11575:762.616   JLINK_ReadMemEx(0x0800060C, 0x0002 Bytes, ..., Flags = 0x02000000)
T05C8 11575:762.635    -- Read from C cache (2 bytes @ 0x0800060C)
T05C8 11575:762.663   Data:  2C 06
T05C8 11575:762.679 - 0.069ms returns 0x02
T05C8 11575:762.705   JLINK_ReadMemEx(0x0800060C, 0x003C Bytes, ..., Flags = 0x02000000)
T05C8 11575:762.724    -- Read from C cache (60 bytes @ 0x0800060C)
T05C8 11575:762.743   Data:  2C 06 00 08 00 00 00 20 20 00 00 00 6C 01 00 08 ...
T05C8 11575:762.759 - 0.059ms returns 0x3C
T05C8 11575:762.775   JLINK_ReadMemEx(0x0800060C, 0x0002 Bytes, ..., Flags = 0x02000000)
T05C8 11575:762.794    -- Read from C cache (2 bytes @ 0x0800060C)
T05C8 11575:762.811   Data:  2C 06
T05C8 11575:762.828 - 0.059ms returns 0x02
T05C8 11575:762.846   JLINK_ReadMemEx(0x0800060E, 0x0002 Bytes, ..., Flags = 0x02000000)
T05C8 11575:762.863    -- Read from C cache (2 bytes @ 0x0800060E)
T05C8 11575:762.883   Data:  00 08
T05C8 11575:762.900 - 0.060ms returns 0x02
T4354 11576:264.044   JLINK_ReadMemEx(0x08000604, 0x0002 Bytes, ..., Flags = 0x02000000)
T4354 11576:264.068    -- Read from C cache (2 bytes @ 0x08000604)
T4354 11576:264.077   Data:  FF F7
T4354 11576:264.086 - 0.046ms returns 0x02
T4354 11576:264.100 JLINK_Step()
T4354 11576:264.719    -- Read from C cache (2 bytes @ 0x08000604)
T4354 11576:264.734    -- Read from C cache (2 bytes @ 0x08000606)
T4354 11576:264.744    -- Simulated
T4354 11576:264.752 - 0.655ms returns 0x00
T4354 11576:264.766 JLINK_ReadReg(R15 (PC))
T4354 11576:264.773 - 0.010ms returns 0x080005AC
T4354 11576:264.782 JLINK_ReadReg(XPSR)
T4354 11576:264.788 - 0.009ms returns 0x01000000
T4354 11576:264.802   JLINK_SetBPEx(Addr = 0x08000604, Type = 0xFFFFFFF2)
T4354 11576:264.812 - 0.013ms returns 0x00000006
T4354 11576:264.823   JLINK_SetBPEx(Addr = 0x080005FA, Type = 0xFFFFFFF2)
T4354 11576:264.831 - 0.012ms returns 0x00000007
T4354 11576:264.844 JLINK_Go()
T4354 11576:264.854    -- CPU_WriteMem(4 bytes @ 0xE0002000)
T4354 11576:265.690    -- CPU_WriteMem(4 bytes @ 0xE0002000)
T4354 11576:266.777    -- CPU_ReadMem(4 bytes @ 0xE0001000)
T4354 11576:267.789    -- CPU_WriteMem(4 bytes @ 0xE0001004)
T4354 11576:270.687 - 5.851ms
T4354 11576:371.459 JLINK_IsHalted()
T4354 11576:373.723 - 2.277ms returns TRUE
T4354 11576:373.748 JLINK_Halt()
T4354 11576:373.753 - 0.008ms returns 0x00
T4354 11576:373.760 JLINK_IsHalted()
T4354 11576:373.766 - 0.007ms returns TRUE
T4354 11576:373.772 JLINK_IsHalted()
T4354 11576:373.777 - 0.007ms returns TRUE
T4354 11576:373.784 JLINK_IsHalted()
T4354 11576:373.789 - 0.007ms returns TRUE
T4354 11576:373.798 JLINK_ReadReg(R15 (PC))
T4354 11576:373.805 - 0.010ms returns 0x080005FA
T4354 11576:373.812 JLINK_ReadReg(XPSR)
T4354 11576:373.818 - 0.008ms returns 0x01000000
T4354 11576:373.830 JLINK_ClrBPEx(BPHandle = 0x00000006)
T4354 11576:373.836 - 0.008ms returns 0x00
T4354 11576:373.845 JLINK_ClrBPEx(BPHandle = 0x00000007)
T4354 11576:373.850 - 0.007ms returns 0x00
T4354 11576:373.861 JLINK_ReadMemU32(0xE000ED30, 0x0001 Items, ...)
T4354 11576:373.870    -- CPU_ReadMem(4 bytes @ 0xE000ED30)
T4354 11576:374.604   Data:  02 00 00 00
T4354 11576:374.622 - 0.764ms returns 1
T4354 11576:374.634 JLINK_ReadMemU32(0xE0001028, 0x0001 Items, ...)
T4354 11576:374.647    -- CPU_ReadMem(4 bytes @ 0xE0001028)
T4354 11576:375.635   Data:  00 00 00 00
T4354 11576:375.655    - DWT_FUNC[0]
T4354 11576:375.663 - 1.031ms returns 1
T4354 11576:375.675 JLINK_ReadMemU32(0xE0001038, 0x0001 Items, ...)
T4354 11576:375.688    -- CPU_ReadMem(4 bytes @ 0xE0001038)
T4354 11576:376.568   Data:  00 02 00 00
T4354 11576:376.582    - DWT_FUNC[1]
T4354 11576:376.590 - 0.917ms returns 1
T4354 11576:376.601 JLINK_ReadMemU32(0xE0001048, 0x0001 Items, ...)
T4354 11576:376.612    -- CPU_ReadMem(4 bytes @ 0xE0001048)
T4354 11576:377.530   Data:  00 00 00 00
T4354 11576:377.544    - DWT_FUNC[2]
T4354 11576:377.552 - 0.954ms returns 1
T4354 11576:377.563 JLINK_ReadMemU32(0xE0001058, 0x0001 Items, ...)
T4354 11576:377.574    -- CPU_ReadMem(4 bytes @ 0xE0001058)
T4354 11576:378.618   Data:  00 00 00 00
T4354 11576:378.632    - DWT_FUNC[3]
T4354 11576:378.640 - 1.079ms returns 1
T4354 11576:378.694 JLINK_ReadReg(R0)
T4354 11576:378.705 - 0.014ms returns 0x10000000
T4354 11576:378.713 JLINK_ReadReg(R1)
T4354 11576:378.718 - 0.008ms returns 0xE000ED04
T4354 11576:378.726 JLINK_ReadReg(R2)
T4354 11576:378.731 - 0.008ms returns 0x00000002
T4354 11576:378.739 JLINK_ReadReg(R3)
T4354 11576:378.744 - 0.008ms returns 0x00000003
T4354 11576:378.752 JLINK_ReadReg(R4)
T4354 11576:378.757 - 0.008ms returns 0x11111111
T4354 11576:378.765 JLINK_ReadReg(R5)
T4354 11576:378.770 - 0.008ms returns 0x11111113
T4354 11576:378.777 JLINK_ReadReg(R6)
T4354 11576:378.783 - 0.008ms returns 0x00000006
T4354 11576:378.790 JLINK_ReadReg(R7)
T4354 11576:378.796 - 0.008ms returns 0x00000007
T4354 11576:378.803 JLINK_ReadReg(R8)
T4354 11576:378.809 - 0.008ms returns 0x00000008
T4354 11576:378.816 JLINK_ReadReg(R9)
T4354 11576:378.821 - 0.008ms returns 0x00000009
T4354 11576:378.829 JLINK_ReadReg(R10)
T4354 11576:378.834 - 0.008ms returns 0x00000010
T4354 11576:378.841 JLINK_ReadReg(R11)
T4354 11576:378.847 - 0.008ms returns 0x00000011
T4354 11576:378.854 JLINK_ReadReg(R12)
T4354 11576:378.860 - 0.008ms returns 0x00000012
T4354 11576:378.867 JLINK_ReadReg(R13 (SP))
T4354 11576:378.873 - 0.008ms returns 0x20000120
T4354 11576:378.880 JLINK_ReadReg(R14)
T4354 11576:378.886 - 0.008ms returns 0x080005D1
T4354 11576:378.893 JLINK_ReadReg(R15 (PC))
T4354 11576:378.899 - 0.008ms returns 0x080005FA
T4354 11576:378.906 JLINK_ReadReg(XPSR)
T4354 11576:378.911 - 0.008ms returns 0x01000000
T4354 11576:378.919 JLINK_ReadReg(MSP)
T4354 11576:378.924 - 0.008ms returns 0x20000860
T4354 11576:378.931 JLINK_ReadReg(PSP)
T4354 11576:378.937 - 0.008ms returns 0x20000120
T4354 11576:378.944 JLINK_ReadReg(CFBP)
